**** 03/09/19 13:13:55 ***** PSpice 16.6.0 (October 2012) ***** ID# 0 ********

 ** Profile: "SCHEMATIC1-aa"  [ C:\Users\USER\Desktop\Sim\2r_divider\2r_divider-pspicefiles\schematic1\aa.sim ] 


 ****     CIRCUIT DESCRIPTION
******************************************************************************
** Creating circuit file "aa.cir" 
** WARNING: THIS AUTOMATICALLY GENERATED FILE MAY BE OVERWRITTEN BY SUBSEQUENT SIMULATIONS

*Libraries: 
* Profile Libraries :
* Local Libraries :
* From [PSPICE NETLIST] section of D:\Users\USER\AppData\Roaming\SPB_Data\cdssetup\OrCAD_PSpice/16.6.0/PSpice.ini file:
.lib "nom.lib" 

*Analysis directives: 
.TRAN  0 1000ns 0 
.OPTIONS ADVCONV
.PROBE64 V(alias(*)) I(alias(*)) W(alias(*)) D(alias(*)) NOISE(alias(*)) 
.INC "..\SCHEMATIC1.net" 

**** INCLUDING SCHEMATIC1.net ****
* source 2R_DIVIDER
V_V1         N00123 0 5Vdc
R_R1         N00123 N00107  1k TC=0,0 
R_R2         0 N00107  1k TC=0,0 

**** RESUMING aa.cir ****
.END

**** 03/09/19 13:13:55 ***** PSpice 16.6.0 (October 2012) ***** ID# 0 ********

 ** Profile: "SCHEMATIC1-aa"  [ C:\Users\USER\Desktop\Sim\2r_divider\2r_divider-pspicefiles\schematic1\aa.sim ] 


 ****     INITIAL TRANSIENT SOLUTION       TEMPERATURE =   27.000 DEG C
******************************************************************************
 NODE   VOLTAGE     NODE   VOLTAGE     NODE   VOLTAGE     NODE   VOLTAGE

(N00107)    2.5000 (N00123)    5.0000 

    VOLTAGE SOURCE CURRENTS
    NAME         CURRENT

    V_V1        -2.500E-03

    TOTAL POWER DISSIPATION   1.25E-02  WATTS

          JOB CONCLUDED

**** 03/09/19 13:13:55 ***** PSpice 16.6.0 (October 2012) ***** ID# 0 ********

 ** Profile: "SCHEMATIC1-aa"  [ C:\Users\USER\Desktop\Sim\2r_divider\2r_divider-pspicefiles\schematic1\aa.sim ] 

 ****     JOB STATISTICS SUMMARY
******************************************************************************
  Total job time (using Solver 1)   =         .02

